Time [s], Analyzer Name, Decoded Protocol Result
0.908903000000000,SPI,MOSI: '26' (0x1A);  MISO: '0' (0x00)
0.908942062500000,SPI,MOSI: '179' (0xB3);  MISO: '0' (0x00)
0.908988000000000,SPI,MOSI: '26' (0x1A);  MISO: '0' (0x00)
0.909026562500000,SPI,MOSI: ^ (0x5E);  MISO: '0' (0x00)
0.909743687500000,SPI,MOSI: '6' (0x06);  MISO: '0' (0x00)
0.909781750000000,SPI,MOSI: 7 (0x37);  MISO: '0' (0x00)
0.909831812500000,SPI,MOSI: '129' (0x81);  MISO: '0' (0x00)
0.909911125000000,SPI,MOSI: '255' (0xFF);  MISO: '2' (0x02)
0.909995375000000,SPI,MOSI: '129' (0x81);  MISO: '0' (0x00)
0.910074750000000,SPI,MOSI: '255' (0xFF);  MISO: '2' (0x02)
0.910159000000000,SPI,MOSI: '129' (0x81);  MISO: '0' (0x00)
0.910238312500000,SPI,MOSI: '255' (0xFF);  MISO: '2' (0x02)
0.910322562500000,SPI,MOSI: '129' (0x81);  MISO: '0' (0x00)
0.910401937500000,SPI,MOSI: '255' (0xFF);  MISO: '3' (0x03)
0.910484937500000,SPI,MOSI: '11' (0x0B);  MISO: '0' (0x00)
0.910523500000000,SPI,MOSI: '29' (0x1D);  MISO: '0' (0x00)
0.910569437500000,SPI,MOSI: '22' (0x16);  MISO: '0' (0x00)
0.910608000000000,SPI,MOSI: '16' (0x10);  MISO: '0' (0x00)
0.910652437500000,SPI,MOSI: '0' (0x00);  MISO: '0' (0x00)
0.910690000000000,SPI,MOSI: '255' (0xFF);  MISO: '0' (0x00)
0.910737375000000,SPI,MOSI: '1' (0x01);  MISO: '0' (0x00)
0.910775500000000,SPI,MOSI: '255' (0xFF);  MISO: '0' (0x00)
0.910824812500000,SPI,MOSI: '7' (0x07);  MISO: '0' (0x00)
0.910863375000000,SPI,MOSI: '26' (0x1A);  MISO: '0' (0x00)
0.910909500000000,SPI,MOSI: '14' (0x0E);  MISO: '0' (0x00)
0.910948125000000,SPI,MOSI: Z (0x5A);  MISO: '0' (0x00)
0.910994000000000,SPI,MOSI: '15' (0x0F);  MISO: '0' (0x00)
0.911033062500000,SPI,MOSI: '0' (0x00);  MISO: '0' (0x00)
0.911077000000000,SPI,MOSI: '16' (0x10);  MISO: '0' (0x00)
0.911114625000000,SPI,MOSI: Z (0x5A);  MISO: '0' (0x00)
0.911160500000000,SPI,MOSI: '17' (0x11);  MISO: '0' (0x00)
0.911198625000000,SPI,MOSI: Z (0x5A);  MISO: '0' (0x00)
0.911244500000000,SPI,MOSI: '18' (0x12);  MISO: '0' (0x00)
0.911282625000000,SPI,MOSI: '0' (0x00);  MISO: '0' (0x00)
0.911326562500000,SPI,MOSI: '19' (0x13);  MISO: '0' (0x00)
0.911365125000000,SPI,MOSI: Z (0x5A);  MISO: '0' (0x00)
0.911411000000000,SPI,MOSI: '4' (0x04);  MISO: '0' (0x00)
0.911448625000000,SPI,MOSI: '2' (0x02);  MISO: '0' (0x00)
0.911493062500000,SPI,MOSI: '2' (0x02);  MISO: '0' (0x00)
0.911531125000000,SPI,MOSI: '128' (0x80);  MISO: '0' (0x00)
0.911575125000000,SPI,MOSI: '3' (0x03);  MISO: '0' (0x00)
0.911613187500000,SPI,MOSI: '0' (0x00);  MISO: '0' (0x00)
0.911657125000000,SPI,MOSI: '0' (0x00);  MISO: '0' (0x00)
0.911694750000000,SPI,MOSI: '255' (0xFF);  MISO: '0' (0x00)
0.911742125000000,SPI,MOSI: '1' (0x01);  MISO: '0' (0x00)
0.911780187500000,SPI,MOSI: '255' (0xFF);  MISO: '0' (0x00)
0.922017312500000,SPI,MOSI: '4' (0x04);  MISO: '0' (0x00)
0.922054875000000,SPI,MOSI: '0' (0x00);  MISO: '0' (0x00)
0.922098875000000,SPI,MOSI: '0' (0x00);  MISO: '0' (0x00)
0.922136437500000,SPI,MOSI: '255' (0xFF);  MISO: '0' (0x00)
0.922183812500000,SPI,MOSI: '5' (0x05);  MISO: '0' (0x00)
0.922221875000000,SPI,MOSI: '2' (0x02);  MISO: '0' (0x00)
0.995317562500000,SPI,MOSI: '26' (0x1A);  MISO: '0' (0x00)
0.995383937500000,SPI,MOSI: '179' (0xB3);  MISO: '0' (0x00)
0.995467437500000,SPI,MOSI: '26' (0x1A);  MISO: '0' (0x00)
0.995536812500000,SPI,MOSI: ^ (0x5E);  MISO: '0' (0x00)
0.996334937500000,SPI,MOSI: '6' (0x06);  MISO: '0' (0x00)
0.996403812500000,SPI,MOSI: 7 (0x37);  MISO: '0' (0x00)
0.996491437500000,SPI,MOSI: '129' (0x81);  MISO: '0' (0x00)
0.996632312500000,SPI,MOSI: '255' (0xFF);  MISO: '2' (0x02)
0.996781500000000,SPI,MOSI: '129' (0x81);  MISO: '0' (0x00)
0.996922375000000,SPI,MOSI: '255' (0xFF);  MISO: '2' (0x02)
0.997071562500000,SPI,MOSI: '129' (0x81);  MISO: '0' (0x00)
0.997215875000000,SPI,MOSI: '255' (0xFF);  MISO: '3' (0x03)
0.997359437500000,SPI,MOSI: '8' (0x08);  MISO: '0' (0x00)
0.997427812500000,SPI,MOSI: 1 (0x31);  MISO: '0' (0x00)
0.997507437500000,SPI,MOSI: '12' (0x0C);  MISO: '0' (0x00)
0.997576250000000,SPI,MOSI: '2' (0x02);  MISO: '0' (0x00)
0.997694687500000,SPI,MOSI: '0' (0x00);  MISO: '0' (0x00)
0.997763062500000,SPI,MOSI: '255' (0xFF);  MISO: '0' (0x00)
0.997844562500000,SPI,MOSI: '1' (0x01);  MISO: '0' (0x00)
0.997913437500000,SPI,MOSI: '255' (0xFF);  MISO: '0' (0x00)
0.998000375000000,SPI,MOSI: '7' (0x07);  MISO: '0' (0x00)
0.998069687500000,SPI,MOSI: '26' (0x1A);  MISO: '0' (0x00)
0.998153437500000,SPI,MOSI: '14' (0x0E);  MISO: '0' (0x00)
0.998219375000000,SPI,MOSI: Z (0x5A);  MISO: '0' (0x00)
0.998302875000000,SPI,MOSI: '15' (0x0F);  MISO: '0' (0x00)
0.998372687500000,SPI,MOSI: '0' (0x00);  MISO: '0' (0x00)
0.998450812500000,SPI,MOSI: '16' (0x10);  MISO: '0' (0x00)
0.998515812500000,SPI,MOSI: Z (0x5A);  MISO: '0' (0x00)
0.998599312500000,SPI,MOSI: '17' (0x11);  MISO: '0' (0x00)
0.998664750000000,SPI,MOSI: Z (0x5A);  MISO: '0' (0x00)
0.998748250000000,SPI,MOSI: '18' (0x12);  MISO: '0' (0x00)
0.998813687500000,SPI,MOSI: '0' (0x00);  MISO: '0' (0x00)
0.998891812500000,SPI,MOSI: '19' (0x13);  MISO: '0' (0x00)
0.998961125000000,SPI,MOSI: Z (0x5A);  MISO: '0' (0x00)
0.999044625000000,SPI,MOSI: '20' (0x14);  MISO: '0' (0x00)
0.999110062500000,SPI,MOSI: '31' (0x1F);  MISO: '0' (0x00)
0.999194062500000,SPI,MOSI: '2' (0x02);  MISO: '0' (0x00)
0.999259000000000,SPI,MOSI: @ (0x40);  MISO: '0' (0x00)
0.999341062500000,SPI,MOSI: '3' (0x03);  MISO: '0' (0x00)
0.999406500000000,SPI,MOSI: '0' (0x00);  MISO: '0' (0x00)
0.999484625000000,SPI,MOSI: '0' (0x00);  MISO: '0' (0x00)
0.999553000000000,SPI,MOSI: '255' (0xFF);  MISO: '0' (0x00)
0.999637937500000,SPI,MOSI: '1' (0x01);  MISO: '0' (0x00)
0.999703375000000,SPI,MOSI: '255' (0xFF);  MISO: '0' (0x00)
0.999789312500000,SPI,MOSI: '22' (0x16);  MISO: '0' (0x00)
0.999859125000000,SPI,MOSI: '192' (0xC0);  MISO: '0' (0x00)
0.999937750000000,SPI,MOSI: @ (0x40);  MISO: '0' (0x00)
1.000006125000000,SPI,MOSI: '2' (0x02);  MISO: '0' (0x00)
1.000084750000000,SPI,MOSI: A (0x41);  MISO: '0' (0x00)
1.000153625000000,SPI,MOSI: '4' (0x04);  MISO: '0' (0x00)
1.000232250000000,SPI,MOSI: B (0x42);  MISO: '0' (0x00)
1.000297687500000,SPI,MOSI: v (0x76);  MISO: '0' (0x00)
1.000381625000000,SPI,MOSI: C (0x43);  MISO: '0' (0x00)
1.000451000000000,SPI,MOSI: '1' (0x01);  MISO: '0' (0x00)
1.000529625000000,SPI,MOSI: D (0x44);  MISO: '0' (0x00)
1.000595062500000,SPI,MOSI: '19' (0x13);  MISO: '0' (0x00)
1.000678062500000,SPI,MOSI: E (0x45);  MISO: '0' (0x00)
1.000747375000000,SPI,MOSI: '1' (0x01);  MISO: '0' (0x00)
1.000826000000000,SPI,MOSI: F (0x46);  MISO: '0' (0x00)
1.000891937500000,SPI,MOSI: '19' (0x13);  MISO: '0' (0x00)
1.000974937500000,SPI,MOSI: '4' (0x04);  MISO: '0' (0x00)
1.001039875000000,SPI,MOSI: '7' (0x07);  MISO: '0' (0x00)
1.002087562500000,SPI,MOSI: '0' (0x00);  MISO: '0' (0x00)
1.002155937500000,SPI,MOSI: '255' (0xFF);  MISO: '0' (0x00)
1.002240937500000,SPI,MOSI: '1' (0x01);  MISO: '0' (0x00)
1.002435250000000,SPI,MOSI: '255' (0xFF);  MISO: '0' (0x00)
1.002522187500000,SPI,MOSI: '7' (0x07);  MISO: '0' (0x00)
1.002591562500000,SPI,MOSI: '26' (0x1A);  MISO: '0' (0x00)
1.002671875000000,SPI,MOSI: '14' (0x0E);  MISO: '0' (0x00)
1.002741187500000,SPI,MOSI: Z (0x5A);  MISO: '0' (0x00)
1.002946812500000,SPI,MOSI: '15' (0x0F);  MISO: '0' (0x00)
1.003016625000000,SPI,MOSI: '0' (0x00);  MISO: '0' (0x00)
1.003094750000000,SPI,MOSI: '16' (0x10);  MISO: '0' (0x00)
1.003163125000000,SPI,MOSI: Z (0x5A);  MISO: '0' (0x00)
1.003243187500000,SPI,MOSI: '17' (0x11);  MISO: ' ' (0x20)
1.003437562500000,SPI,MOSI: Z (0x5A);  MISO: '0' (0x00)
1.003521062500000,SPI,MOSI: '18' (0x12);  MISO: ' ' (0x20)
1.003586500000000,SPI,MOSI: '0' (0x00);  MISO: '0' (0x00)
1.003664625000000,SPI,MOSI: '19' (0x13);  MISO: ' ' (0x20)
1.003733937500000,SPI,MOSI: Z (0x5A);  MISO: '0' (0x00)
1.003942937500000,SPI,MOSI: '20' (0x14);  MISO: ' ' (0x20)
1.004008375000000,SPI,MOSI: '31' (0x1F);  MISO: '0' (0x00)
1.004092375000000,SPI,MOSI: '2' (0x02);  MISO: ' ' (0x20)
1.004157312500000,SPI,MOSI: @ (0x40);  MISO: '0' (0x00)
1.004235937500000,SPI,MOSI: '3' (0x03);  MISO: ' ' (0x20)
1.004430312500000,SPI,MOSI: '0' (0x00);  MISO: '0' (0x00)
1.004508437500000,SPI,MOSI: '0' (0x00);  MISO: ' ' (0x20)
1.004576812500000,SPI,MOSI: '255' (0xFF);  MISO: '0' (0x00)
1.004661750000000,SPI,MOSI: '1' (0x01);  MISO: '0' (0x00)
1.004727187500000,SPI,MOSI: '255' (0xFF);  MISO: '0' (0x00)
1.004938625000000,SPI,MOSI: '22' (0x16);  MISO: '0' (0x00)
1.005008437500000,SPI,MOSI: '192' (0xC0);  MISO: '0' (0x00)
1.005087062500000,SPI,MOSI: @ (0x40);  MISO: '0' (0x00)
1.005155437500000,SPI,MOSI: '2' (0x02);  MISO: '0' (0x00)
1.005234062500000,SPI,MOSI: A (0x41);  MISO: '0' (0x00)
1.005428437500000,SPI,MOSI: '4' (0x04);  MISO: '0' (0x00)
1.005507062500000,SPI,MOSI: B (0x42);  MISO: '0' (0x00)
1.005575875000000,SPI,MOSI: u (0x75);  MISO: '0' (0x00)
1.005656437500000,SPI,MOSI: C (0x43);  MISO: '0' (0x00)
1.005725812500000,SPI,MOSI: '1' (0x01);  MISO: '0' (0x00)
1.005929937500000,SPI,MOSI: D (0x44);  MISO: '0' (0x00)
1.005998750000000,SPI,MOSI: '19' (0x13);  MISO: '0' (0x00)
1.006078375000000,SPI,MOSI: E (0x45);  MISO: '0' (0x00)
1.006147687500000,SPI,MOSI: '1' (0x01);  MISO: '0' (0x00)
1.006226312500000,SPI,MOSI: F (0x46);  MISO: '0' (0x00)
1.006421187500000,SPI,MOSI: '19' (0x13);  MISO: '0' (0x00)
1.006500750000000,SPI,MOSI: '4' (0x04);  MISO: '0' (0x00)
1.006569125000000,SPI,MOSI: '7' (0x07);  MISO: '0' (0x00)
1.010131625000000,SPI,MOSI: '0' (0x00);  MISO: ' ' (0x20)
1.010196625000000,SPI,MOSI: '255' (0xFF);  MISO: '0' (0x00)
1.010407062500000,SPI,MOSI: '1' (0x01);  MISO: '0' (0x00)
1.010475937500000,SPI,MOSI: '255' (0xFF);  MISO: '0' (0x00)
1.010562812500000,SPI,MOSI: '7' (0x07);  MISO: '0' (0x00)
1.010632187500000,SPI,MOSI: '26' (0x1A);  MISO: '0' (0x00)
1.010712500000000,SPI,MOSI: '14' (0x0E);  MISO: '0' (0x00)
1.010907375000000,SPI,MOSI: Z (0x5A);  MISO: '0' (0x00)
1.010990875000000,SPI,MOSI: '15' (0x0F);  MISO: '0' (0x00)
1.011060687500000,SPI,MOSI: '0' (0x00);  MISO: '0' (0x00)
1.011138812500000,SPI,MOSI: '16' (0x10);  MISO: '0' (0x00)
1.011203750000000,SPI,MOSI: Z (0x5A);  MISO: '0' (0x00)
1.011412750000000,SPI,MOSI: '17' (0x11);  MISO: '0' (0x00)
1.011478187500000,SPI,MOSI: Z (0x5A);  MISO: '0' (0x00)
1.011561687500000,SPI,MOSI: '18' (0x12);  MISO: '0' (0x00)
1.011627125000000,SPI,MOSI: '0' (0x00);  MISO: '0' (0x00)
1.011705250000000,SPI,MOSI: '19' (0x13);  MISO: '0' (0x00)
1.011897875000000,SPI,MOSI: Z (0x5A);  MISO: '0' (0x00)
1.011978000000000,SPI,MOSI: '20' (0x14);  MISO: '0' (0x00)
1.012046812500000,SPI,MOSI: '31' (0x1F);  MISO: '0' (0x00)
1.012127437500000,SPI,MOSI: '2' (0x02);  MISO: '0' (0x00)
1.012195750000000,SPI,MOSI: @ (0x40);  MISO: '0' (0x00)
1.012399875000000,SPI,MOSI: '3' (0x03);  MISO: '0' (0x00)
1.012468750000000,SPI,MOSI: '0' (0x00);  MISO: '0' (0x00)
1.012546875000000,SPI,MOSI: '0' (0x00);  MISO: '0' (0x00)
1.012611812500000,SPI,MOSI: '255' (0xFF);  MISO: '0' (0x00)
1.012696812500000,SPI,MOSI: '1' (0x01);  MISO: '0' (0x00)
1.012891125000000,SPI,MOSI: '255' (0xFF);  MISO: '0' (0x00)
1.012977062500000,SPI,MOSI: '22' (0x16);  MISO: '0' (0x00)
1.013046937500000,SPI,MOSI: '192' (0xC0);  MISO: '0' (0x00)
1.013125562500000,SPI,MOSI: @ (0x40);  MISO: '0' (0x00)
1.013193875000000,SPI,MOSI: '2' (0x02);  MISO: '0' (0x00)
1.013398000000000,SPI,MOSI: A (0x41);  MISO: '0' (0x00)
1.013463437500000,SPI,MOSI: '4' (0x04);  MISO: '0' (0x00)
1.013545500000000,SPI,MOSI: B (0x42);  MISO: '0' (0x00)
1.013610937500000,SPI,MOSI: t (0x74);  MISO: '0' (0x00)
1.013694437500000,SPI,MOSI: C (0x43);  MISO: '0' (0x00)
1.013760375000000,SPI,MOSI: '1' (0x01);  MISO: '0' (0x00)
1.013967875000000,SPI,MOSI: D (0x44);  MISO: '0' (0x00)
1.014033312500000,SPI,MOSI: '19' (0x13);  MISO: '0' (0x00)
1.014116312500000,SPI,MOSI: E (0x45);  MISO: '0' (0x00)
1.014182250000000,SPI,MOSI: '1' (0x01);  MISO: '0' (0x00)
1.014264312500000,SPI,MOSI: F (0x46);  MISO: '0' (0x00)
1.014455687500000,SPI,MOSI: '19' (0x13);  MISO: '0' (0x00)
1.014538750000000,SPI,MOSI: '4' (0x04);  MISO: '0' (0x00)
1.014603687500000,SPI,MOSI: '7' (0x07);  MISO: '0' (0x00)
1.018024312500000,SPI,MOSI: '0' (0x00);  MISO: ' ' (0x20)
1.018092687500000,SPI,MOSI: '255' (0xFF);  MISO: '0' (0x00)
1.018174250000000,SPI,MOSI: '1' (0x01);  MISO: '0' (0x00)
1.018243125000000,SPI,MOSI: '255' (0xFF);  MISO: '0' (0x00)
1.018455500000000,SPI,MOSI: '7' (0x07);  MISO: '0' (0x00)
1.018524875000000,SPI,MOSI: '26' (0x1A);  MISO: '0' (0x00)
1.018608625000000,SPI,MOSI: '14' (0x0E);  MISO: '0' (0x00)
1.018674562500000,SPI,MOSI: Z (0x5A);  MISO: '0' (0x00)
1.018758062500000,SPI,MOSI: '15' (0x0F);  MISO: '0' (0x00)
1.018953375000000,SPI,MOSI: '0' (0x00);  MISO: '0' (0x00)
1.019031500000000,SPI,MOSI: '16' (0x10);  MISO: '0' (0x00)
1.019096437500000,SPI,MOSI: Z (0x5A);  MISO: '0' (0x00)
1.019179937500000,SPI,MOSI: '17' (0x11);  MISO: '0' (0x00)
1.019248812500000,SPI,MOSI: Z (0x5A);  MISO: '0' (0x00)
1.019454375000000,SPI,MOSI: '18' (0x12);  MISO: '0' (0x00)
1.019523250000000,SPI,MOSI: '0' (0x00);  MISO: '0' (0x00)
1.019601375000000,SPI,MOSI: '19' (0x13);  MISO: '0' (0x00)
1.019670687500000,SPI,MOSI: Z (0x5A);  MISO: '0' (0x00)
1.019750812500000,SPI,MOSI: '20' (0x14);  MISO: '0' (0x00)
1.019945125000000,SPI,MOSI: '31' (0x1F);  MISO: '0' (0x00)
1.020025687500000,SPI,MOSI: '2' (0x02);  MISO: '0' (0x00)
1.020094062500000,SPI,MOSI: @ (0x40);  MISO: '0' (0x00)
1.020172687500000,SPI,MOSI: '3' (0x03);  MISO: '0' (0x00)
1.020241562500000,SPI,MOSI: '0' (0x00);  MISO: '0' (0x00)
1.020445187500000,SPI,MOSI: '0' (0x00);  MISO: '0' (0x00)
1.020510125000000,SPI,MOSI: '255' (0xFF);  MISO: '0' (0x00)
1.020595125000000,SPI,MOSI: '1' (0x01);  MISO: '0' (0x00)
1.020663937500000,SPI,MOSI: '255' (0xFF);  MISO: '0' (0x00)
1.020749875000000,SPI,MOSI: '22' (0x16);  MISO: '0' (0x00)
1.020945250000000,SPI,MOSI: '192' (0xC0);  MISO: '0' (0x00)
1.021023812500000,SPI,MOSI: @ (0x40);  MISO: '0' (0x00)
1.021088812500000,SPI,MOSI: '2' (0x02);  MISO: '0' (0x00)
1.021170812500000,SPI,MOSI: A (0x41);  MISO: '0' (0x00)
1.021236250000000,SPI,MOSI: '4' (0x04);  MISO: '0' (0x00)
1.021440375000000,SPI,MOSI: B (0x42);  MISO: '0' (0x00)
1.021509250000000,SPI,MOSI: s (0x73);  MISO: '0' (0x00)
1.021593187500000,SPI,MOSI: C (0x43);  MISO: '0' (0x00)
1.021659125000000,SPI,MOSI: '1' (0x01);  MISO: '0' (0x00)
1.021741187500000,SPI,MOSI: D (0x44);  MISO: '0' (0x00)
1.021929937500000,SPI,MOSI: '19' (0x13);  MISO: '0' (0x00)
1.022009500000000,SPI,MOSI: E (0x45);  MISO: '0' (0x00)
1.022078875000000,SPI,MOSI: '1' (0x01);  MISO: '0' (0x00)
1.022157500000000,SPI,MOSI: F (0x46);  MISO: '0' (0x00)
1.022226812500000,SPI,MOSI: '19' (0x13);  MISO: '0' (0x00)
1.022431875000000,SPI,MOSI: '4' (0x04);  MISO: '0' (0x00)
1.022500250000000,SPI,MOSI: '7' (0x07);  MISO: '0' (0x00)
1.026128000000000,SPI,MOSI: '0' (0x00);  MISO: ' ' (0x20)
1.026196375000000,SPI,MOSI: '255' (0xFF);  MISO: '0' (0x00)
1.026406812500000,SPI,MOSI: '1' (0x01);  MISO: '0' (0x00)
1.026472250000000,SPI,MOSI: '255' (0xFF);  MISO: '0' (0x00)
1.026562562500000,SPI,MOSI: '7' (0x07);  MISO: '0' (0x00)
1.026628500000000,SPI,MOSI: '26' (0x1A);  MISO: '0' (0x00)
1.026712250000000,SPI,MOSI: '14' (0x0E);  MISO: '0' (0x00)
1.026907125000000,SPI,MOSI: Z (0x5A);  MISO: '0' (0x00)
1.026987187500000,SPI,MOSI: '15' (0x0F);  MISO: '0' (0x00)
1.027057000000000,SPI,MOSI: '0' (0x00);  MISO: '0' (0x00)
1.027135125000000,SPI,MOSI: '16' (0x10);  MISO: '0' (0x00)
1.027203500000000,SPI,MOSI: Z (0x5A);  MISO: '0' (0x00)
1.027409062500000,SPI,MOSI: '17' (0x11);  MISO: '0' (0x00)
1.027477937500000,SPI,MOSI: Z (0x5A);  MISO: '0' (0x00)
1.027558000000000,SPI,MOSI: '18' (0x12);  MISO: '0' (0x00)
1.027626875000000,SPI,MOSI: '0' (0x00);  MISO: '0' (0x00)
1.027705000000000,SPI,MOSI: '19' (0x13);  MISO: '0' (0x00)
1.027899875000000,SPI,MOSI: Z (0x5A);  MISO: '0' (0x00)
1.027979937500000,SPI,MOSI: '20' (0x14);  MISO: '0' (0x00)
1.028048812500000,SPI,MOSI: '31' (0x1F);  MISO: '0' (0x00)
1.028132750000000,SPI,MOSI: '2' (0x02);  MISO: '0' (0x00)
1.028197750000000,SPI,MOSI: @ (0x40);  MISO: '0' (0x00)
1.028401812500000,SPI,MOSI: '3' (0x03);  MISO: '0' (0x00)
1.028470687500000,SPI,MOSI: '0' (0x00);  MISO: '0' (0x00)
1.028548812500000,SPI,MOSI: '0' (0x00);  MISO: '0' (0x00)
1.028617187500000,SPI,MOSI: '255' (0xFF);  MISO: '0' (0x00)
1.028698750000000,SPI,MOSI: '1' (0x01);  MISO: '0' (0x00)
1.028893062500000,SPI,MOSI: '255' (0xFF);  MISO: '0' (0x00)
1.028979062500000,SPI,MOSI: '22' (0x16);  MISO: '0' (0x00)
1.029048875000000,SPI,MOSI: '192' (0xC0);  MISO: '0' (0x00)
1.029127500000000,SPI,MOSI: @ (0x40);  MISO: '0' (0x00)
1.029195875000000,SPI,MOSI: '2' (0x02);  MISO: '0' (0x00)
1.029399937500000,SPI,MOSI: A (0x41);  MISO: '0' (0x00)
1.029468812500000,SPI,MOSI: '4' (0x04);  MISO: '0' (0x00)
1.029547437500000,SPI,MOSI: B (0x42);  MISO: '0' (0x00)
1.029612875000000,SPI,MOSI: r (0x72);  MISO: '0' (0x00)
1.029696375000000,SPI,MOSI: C (0x43);  MISO: '0' (0x00)
1.029765687500000,SPI,MOSI: '1' (0x01);  MISO: '0' (0x00)
1.029969812500000,SPI,MOSI: D (0x44);  MISO: '0' (0x00)
1.030038687500000,SPI,MOSI: '19' (0x13);  MISO: '0' (0x00)
1.030118250000000,SPI,MOSI: E (0x45);  MISO: '0' (0x00)
1.030187625000000,SPI,MOSI: '1' (0x01);  MISO: '0' (0x00)
1.030391750000000,SPI,MOSI: F (0x46);  MISO: '0' (0x00)
1.030461062500000,SPI,MOSI: '19' (0x13);  MISO: '0' (0x00)
1.030540687500000,SPI,MOSI: '4' (0x04);  MISO: '0' (0x00)
1.030609062500000,SPI,MOSI: '7' (0x07);  MISO: '0' (0x00)
1.034160312500000,SPI,MOSI: '0' (0x00);  MISO: ' ' (0x20)
1.034228687500000,SPI,MOSI: '255' (0xFF);  MISO: '0' (0x00)
1.034439187500000,SPI,MOSI: '1' (0x01);  MISO: '0' (0x00)
1.034508000000000,SPI,MOSI: '255' (0xFF);  MISO: '0' (0x00)
1.034594937500000,SPI,MOSI: '7' (0x07);  MISO: '0' (0x00)
1.034664250000000,SPI,MOSI: '26' (0x1A);  MISO: '0' (0x00)
1.034744625000000,SPI,MOSI: '14' (0x0E);  MISO: '0' (0x00)
1.034939437500000,SPI,MOSI: Z (0x5A);  MISO: '0' (0x00)
1.035019500000000,SPI,MOSI: '15' (0x0F);  MISO: '0' (0x00)
1.035089375000000,SPI,MOSI: '0' (0x00);  MISO: '0' (0x00)
1.035167500000000,SPI,MOSI: '16' (0x10);  MISO: '0' (0x00)
1.035235875000000,SPI,MOSI: Z (0x5A);  MISO: '0' (0x00)
1.035441437500000,SPI,MOSI: '17' (0x11);  MISO: '0' (0x00)
1.035510312500000,SPI,MOSI: Z (0x5A);  MISO: '0' (0x00)
1.035593812500000,SPI,MOSI: '18' (0x12);  MISO: '0' (0x00)
1.035659250000000,SPI,MOSI: '0' (0x00);  MISO: '0' (0x00)
1.035737375000000,SPI,MOSI: '19' (0x13);  MISO: '0' (0x00)
1.035932187500000,SPI,MOSI: Z (0x5A);  MISO: '0' (0x00)
1.036015687500000,SPI,MOSI: '20' (0x14);  MISO: '0' (0x00)
1.036081125000000,SPI,MOSI: '31' (0x1F);  MISO: '0' (0x00)
1.036165125000000,SPI,MOSI: '2' (0x02);  MISO: '0' (0x00)
1.036230062500000,SPI,MOSI: @ (0x40);  MISO: '0' (0x00)
1.036437625000000,SPI,MOSI: '3' (0x03);  MISO: '0' (0x00)
1.036503062500000,SPI,MOSI: '0' (0x00);  MISO: '0' (0x00)
1.036581187500000,SPI,MOSI: '0' (0x00);  MISO: '0' (0x00)
1.036649562500000,SPI,MOSI: '255' (0xFF);  MISO: '0' (0x00)
1.036734500000000,SPI,MOSI: '1' (0x01);  MISO: '0' (0x00)
1.036925437500000,SPI,MOSI: '255' (0xFF);  MISO: '0' (0x00)
1.037011375000000,SPI,MOSI: '22' (0x16);  MISO: '0' (0x00)
1.037081187500000,SPI,MOSI: '192' (0xC0);  MISO: '0' (0x00)
1.037159812500000,SPI,MOSI: @ (0x40);  MISO: '0' (0x00)
1.037228187500000,SPI,MOSI: '2' (0x02);  MISO: '0' (0x00)
1.037432312500000,SPI,MOSI: A (0x41);  MISO: '0' (0x00)
1.037501187500000,SPI,MOSI: '4' (0x04);  MISO: '0' (0x00)
1.037579812500000,SPI,MOSI: B (0x42);  MISO: '0' (0x00)
1.037648625000000,SPI,MOSI: q (0x71);  MISO: '0' (0x00)
1.037728750000000,SPI,MOSI: C (0x43);  MISO: '0' (0x00)
1.037923562500000,SPI,MOSI: '1' (0x01);  MISO: '0' (0x00)
1.038002187500000,SPI,MOSI: D (0x44);  MISO: '0' (0x00)
1.038071000000000,SPI,MOSI: '19' (0x13);  MISO: '0' (0x00)
1.038150625000000,SPI,MOSI: E (0x45);  MISO: '0' (0x00)
1.038219937500000,SPI,MOSI: '1' (0x01);  MISO: '0' (0x00)
1.038424062500000,SPI,MOSI: F (0x46);  MISO: '0' (0x00)
1.038493437500000,SPI,MOSI: '19' (0x13);  MISO: '0' (0x00)
1.038573000000000,SPI,MOSI: '4' (0x04);  MISO: '0' (0x00)
